T54A38 000:003.424   SEGGER J-Link V7.94k Log File
T54A38 000:003.532   DLL Compiled: Feb 21 2024 16:24:45
T54A38 000:003.536   Logging started @ 2026-04-06 09:50
T54A38 000:003.539   Process: C:\Keil_v5\UV4\UV4.exe
T54A38 000:003.545 - 3.542ms
T54A38 000:003.552 JLINK_SetWarnOutHandler(...)
T54A38 000:003.555 - 0.004ms
T54A38 000:003.559 JLINK_OpenEx(...)
T54A38 000:008.636   Firmware: J-Link V9 compiled May  7 2021 16:26:12
T54A38 000:009.625   Firmware: J-Link V9 compiled May  7 2021 16:26:12
T54A38 000:009.838   Decompressing FW timestamp took 177 us
T54A38 000:016.272   Hardware: V9.40
T54A38 000:016.302   S/N: 269400536
T54A38 000:016.312   OEM: SEGGER-EDU
T54A38 000:016.322   Feature(s): FlashBP, GDB
T54A38 000:018.374   Bootloader: (Could not read)
T54A38 000:042.710   TELNET listener socket opened on port 19021
T54A38 000:043.059   WEBSRV WEBSRV_Init(): Starting webserver thread(s)
T54A38 000:043.166   WEBSRV Failed to put socket into listener state (port 19080)
T54A38 000:043.366   WEBSRV Webserver running on local port 19081
T54A38 000:043.492   Looking for J-Link GUI Server exe at: C:\Keil_v5\ARM\Segger\JLinkGUIServer.exe
T54A38 000:043.576   Looking for J-Link GUI Server exe at: C:\Program Files\SEGGER\JLink_V794k\JLinkGUIServer.exe
T54A38 000:043.602   Forking J-Link GUI Server: C:\Program Files\SEGGER\JLink_V794k\JLinkGUIServer.exe
T54A38 000:046.665   J-Link GUI Server info: "J-Link GUI server V7.94k "
T54A38 000:046.943 - 43.375ms returns "O.K."
T54A38 000:046.982 JLINK_GetEmuCaps()
T54A38 000:046.989 - 0.004ms returns 0xB9FF7BBF
T54A38 000:047.000 JLINK_TIF_GetAvailable(...)
T54A38 000:047.323 - 0.323ms
T54A38 000:047.341 JLINK_SetErrorOutHandler(...)
T54A38 000:047.344 - 0.003ms
T54A38 000:047.379 JLINK_ExecCommand("ProjectFile = "D:\git\sloop_g0_board\project\MDK-ARM\JLinkSettings.ini"", ...). 
T54A38 000:061.820 - 14.440ms returns 0x00
T54A38 000:062.910 JLINK_ExecCommand("Device = STM32G030K8Tx", ...). 
T54A38 000:064.852   Device "STM32G030K8" selected.
T54A38 000:065.101 - 2.175ms returns 0x00
T54A38 000:065.118 JLINK_ExecCommand("DisableConnectionTimeout", ...). 
T54A38 000:065.125 - 0.001ms returns 0x01
T54A38 000:065.129 JLINK_GetHardwareVersion()
T54A38 000:065.133 - 0.003ms returns 94000
T54A38 000:065.145 JLINK_GetDLLVersion()
T54A38 000:065.148 - 0.003ms returns 79411
T54A38 000:065.153 JLINK_GetOEMString(...)
T54A38 000:067.414 JLINK_GetDLLVersion()
T54A38 000:067.425 - 0.010ms returns 79411
T54A38 000:067.429 JLINK_GetCompileDateTime()
T54A38 000:067.432 - 0.003ms
T54A38 000:068.113 JLINK_GetFirmwareString(...)
T54A38 000:068.122 - 0.009ms
T54A38 000:068.758 JLINK_GetHardwareVersion()
T54A38 000:068.766 - 0.008ms returns 94000
T54A38 000:069.552 JLINK_GetSN()
T54A38 000:069.562 - 0.009ms returns 269400536
T54A38 000:070.318 JLINK_GetOEMString(...)
T54A38 000:076.532 JLINK_TIF_Select(JLINKARM_TIF_SWD)
T54A38 000:078.201 - 1.669ms returns 0x00
T54A38 000:078.226 JLINK_HasError()
T54A38 000:078.243 JLINK_SetSpeed(5000)
T54A38 000:078.922 - 0.679ms
T54A38 000:078.953 JLINK_GetId()
T54A38 000:093.116   InitTarget() start
T54A38 000:093.149    J-Link Script File: Executing InitTarget()
T54A38 000:095.454   SWD selected. Executing JTAG -> SWD switching sequence.
T54A38 000:099.664   DAP initialized successfully.
T54A38 000:108.796   InitTarget() end - Took 12.7ms
T54A38 000:111.768   Found SW-DP with ID 0x0BC11477
T54A38 000:115.636   DPIDR: 0x0BC11477
T54A38 000:117.336   CoreSight SoC-400 or earlier
T54A38 000:119.133   Scanning AP map to find all available APs
T54A38 000:123.371   AP[1]: Stopped AP scan as end of AP map has been reached
T54A38 000:125.341   AP[0]: AHB-AP (IDR: 0x04770031)
T54A38 000:127.208   Iterating through AP map to find AHB-AP to use
T54A38 000:130.773   AP[0]: Core found
T54A38 000:132.583   AP[0]: AHB-AP ROM base: 0xF0000000
T54A38 000:134.842   CPUID register: 0x410CC601. Implementer code: 0x41 (ARM)
T54A38 000:137.992   Found Cortex-M0 r0p1, Little endian.
T54A38 000:138.397   -- Max. mem block: 0x0000D390
T54A38 000:138.973   CPU_ReadMem(4 bytes @ 0xE000EDF0)
T54A38 000:139.229   CPU_ReadMem(4 bytes @ 0xE0002000)
T54A38 000:141.407   FPUnit: 4 code (BP) slots and 0 literal slots
T54A38 000:141.420   CPU_ReadMem(4 bytes @ 0xE000EDFC)
T54A38 000:141.710   CPU_ReadMem(4 bytes @ 0xE0001000)
T54A38 000:142.078   CPU_WriteMem(4 bytes @ 0xE0001000)
T54A38 000:144.196   CoreSight components:
T54A38 000:146.846   ROMTbl[0] @ F0000000
T54A38 000:146.886   CPU_ReadMem(64 bytes @ 0xF0000000)
T54A38 000:147.435   CPU_ReadMem(32 bytes @ 0xE00FFFE0)
T54A38 000:150.237   [0][0]: E00FF000 CID B105100D PID 000BB4C0 ROM Table
T54A38 000:153.373   ROMTbl[1] @ E00FF000
T54A38 000:153.393   CPU_ReadMem(64 bytes @ 0xE00FF000)
T54A38 000:153.976   CPU_ReadMem(32 bytes @ 0xE000EFE0)
T54A38 000:156.967   [1][0]: E000E000 CID B105E00D PID 000BB008 SCS
T54A38 000:156.990   CPU_ReadMem(32 bytes @ 0xE0001FE0)
T54A38 000:159.410   [1][1]: E0001000 CID B105E00D PID 000BB00A DWT
T54A38 000:159.425   CPU_ReadMem(32 bytes @ 0xE0002FE0)
T54A38 000:161.997   [1][2]: E0002000 CID B105E00D PID 000BB00B FPB
T54A38 000:162.380 - 83.426ms returns 0x0BC11477
T54A38 000:162.424 JLINK_GetDLLVersion()
T54A38 000:162.429 - 0.004ms returns 79411
T54A38 000:162.434 JLINK_CORE_GetFound()
T54A38 000:162.437 - 0.003ms returns 0x60000FF
T54A38 000:162.453 JLINK_GetDebugInfo(0x100 = JLINKARM_ROM_TABLE_ADDR_INDEX)
T54A38 000:162.462   Value=0xF0000000
T54A38 000:162.467 - 0.014ms returns 0
T54A38 000:165.215 JLINK_GetDebugInfo(0x100 = JLINKARM_ROM_TABLE_ADDR_INDEX)
T54A38 000:165.227   Value=0xF0000000
T54A38 000:165.232 - 0.017ms returns 0
T54A38 000:165.237 JLINK_GetDebugInfo(0x101 = JLINKARM_DEBUG_INFO_ETM_ADDR_INDEX)
T54A38 000:165.240   Value=0x00000000
T54A38 000:165.245 - 0.008ms returns 0
T54A38 000:165.251 JLINK_ReadMemEx(0xE0041FF0, 0x10 Bytes, Flags = 0x02000004)
T54A38 000:165.278   CPU_ReadMem(16 bytes @ 0xE0041FF0)
T54A38 000:165.807   Data:  00 00 00 00 00 00 00 00 00 00 00 00 00 00 00 00
T54A38 000:165.816 - 0.565ms returns 16 (0x10)
T54A38 000:165.834 JLINK_GetDebugInfo(0x102 = JLINKARM_DEBUG_INFO_MTB_ADDR_INDEX)
T54A38 000:165.837   Value=0x00000000
T54A38 000:165.842 - 0.008ms returns 0
T54A38 000:165.847 JLINK_GetDebugInfo(0x103 = JLINKARM_DEBUG_INFO_TPIU_ADDR_INDEX)
T54A38 000:165.850   Value=0x00000000
T54A38 000:165.855 - 0.008ms returns 0
T54A38 000:165.860 JLINK_GetDebugInfo(0x104 = JLINKARM_DEBUG_INFO_ITM_ADDR_INDEX)
T54A38 000:165.863   Value=0xE0000000
T54A38 000:165.868 - 0.008ms returns 0
T54A38 000:165.872 JLINK_GetDebugInfo(0x105 = JLINKARM_DEBUG_INFO_DWT_ADDR_INDEX)
T54A38 000:165.875   Value=0xE0001000
T54A38 000:165.880 - 0.008ms returns 0
T54A38 000:165.885 JLINK_GetDebugInfo(0x106 = JLINKARM_DEBUG_INFO_FPB_ADDR_INDEX)
T54A38 000:165.888   Value=0xE0002000
T54A38 000:165.893 - 0.008ms returns 0
T54A38 000:165.897 JLINK_GetDebugInfo(0x107 = JLINKARM_DEBUG_INFO_NVIC_ADDR_INDEX)
T54A38 000:165.900   Value=0xE000E000
T54A38 000:165.905 - 0.008ms returns 0
T54A38 000:165.910 JLINK_GetDebugInfo(0x10C = JLINKARM_DEBUG_INFO_DBG_ADDR_INDEX)
T54A38 000:165.913   Value=0xE000EDF0
T54A38 000:165.918 - 0.008ms returns 0
T54A38 000:165.926 JLINK_GetDebugInfo(0x01 = Unknown)
T54A38 000:165.929   Value=0x00000000
T54A38 000:165.934 - 0.012ms returns 0
T54A38 000:165.939 JLINK_ReadMemU32(0xE000ED00, 0x1 Items)
T54A38 000:165.945   CPU_ReadMem(4 bytes @ 0xE000ED00)
T54A38 000:166.352   Data:  01 C6 0C 41
T54A38 000:166.359   Debug reg: CPUID
T54A38 000:166.364 - 0.425ms returns 1 (0x1)
T54A38 000:166.379 JLINK_GetDebugInfo(0x10F = JLINKARM_DEBUG_INFO_HAS_CORTEX_M_SECURITY_EXT_INDEX)
T54A38 000:166.382   Value=0x00000000
T54A38 000:166.387 - 0.008ms returns 0
T54A38 000:166.392 JLINK_HasError()
T54A38 000:166.397 JLINK_SetResetType(JLINKARM_CM3_RESET_TYPE_NORMAL)
T54A38 000:166.401 - 0.003ms returns JLINKARM_CM3_RESET_TYPE_NORMAL
T54A38 000:166.405 JLINK_Reset()
T54A38 000:167.306   CPU is running
T54A38 000:167.336   CPU_WriteMem(4 bytes @ 0xE000EDF0)
T54A38 000:167.687   CPU is running
T54A38 000:167.745   CPU_WriteMem(4 bytes @ 0xE000EDFC)
T54A38 000:170.060   Reset: Halt core after reset via DEMCR.VC_CORERESET.
T54A38 000:173.025   Reset: Reset device via AIRCR.SYSRESETREQ.
T54A38 000:173.050   CPU is running
T54A38 000:173.061   CPU_WriteMem(4 bytes @ 0xE000ED0C)
T54A38 000:226.182   CPU_ReadMem(4 bytes @ 0xE000EDF0)
T54A38 000:226.515   CPU_ReadMem(4 bytes @ 0xE000EDF0)
T54A38 000:228.861   CPU_WriteMem(4 bytes @ 0xE000EDFC)
T54A38 000:235.951   CPU_ReadMem(4 bytes @ 0xE000EDF0)
T54A38 000:238.673   CPU_WriteMem(4 bytes @ 0xE0002000)
T54A38 000:238.971   CPU_ReadMem(4 bytes @ 0xE000EDFC)
T54A38 000:239.245   CPU_ReadMem(4 bytes @ 0xE0001000)
T54A38 000:239.519   CPU_WriteMem(4 bytes @ 0xE0001000)
T54A38 000:239.895 - 73.490ms
T54A38 000:239.939 JLINK_Halt()
T54A38 000:239.943 - 0.004ms returns 0x00
T54A38 000:239.949 JLINK_ReadMemU32(0xE000EDF0, 0x1 Items)
T54A38 000:239.959   CPU_ReadMem(4 bytes @ 0xE000EDF0)
T54A38 000:240.243   Data:  03 00 03 00
T54A38 000:240.248   Debug reg: DHCSR
T54A38 000:240.253 - 0.304ms returns 1 (0x1)
T54A38 000:240.281 JLINK_WriteU32_64(0xE000EDF0, 0xA05F0003)
T54A38 000:240.284   Debug reg: DHCSR
T54A38 000:240.659   CPU_WriteMem(4 bytes @ 0xE000EDF0)
T54A38 000:257.524 - 17.241ms returns 0 (0x00000000)
T54A38 000:257.626 JLINK_WriteU32_64(0xE000EDFC, 0x01000000)
T54A38 000:257.672   Debug reg: DEMCR
T54A38 000:257.702   CPU_WriteMem(4 bytes @ 0xE000EDFC)
T54A38 000:258.158 - 0.531ms returns 0 (0x00000000)
T54A38 000:275.471 JLINK_GetHWStatus(...)
T54A38 000:276.209 - 0.736ms returns 0
T54A38 000:292.972 JLINK_GetNumBPUnits(Type = 0xFFFFFF00)
T54A38 000:293.007 - 0.035ms returns 0x04
T54A38 000:293.012 JLINK_GetNumBPUnits(Type = 0xF0)
T54A38 000:293.017 - 0.004ms returns 0x2000
T54A38 000:293.021 JLINK_GetNumWPUnits()
T54A38 000:293.025 - 0.003ms returns 2
T54A38 000:302.853 JLINK_GetSpeed()
T54A38 000:302.889 - 0.036ms returns 4000
T54A38 000:312.807 JLINK_ReadMemU32(0xE000E004, 0x1 Items)
T54A38 000:312.844   CPU_ReadMem(4 bytes @ 0xE000E004)
T54A38 000:313.228   Data:  00 00 00 00
T54A38 000:313.236 - 0.429ms returns 1 (0x1)
T54A38 000:313.256 JLINK_Halt()
T54A38 000:313.260 - 0.004ms returns 0x00
T54A38 000:313.264 JLINK_IsHalted()
T54A38 000:313.269 - 0.004ms returns TRUE
T54A38 000:316.129 JLINK_WriteMem(0x20000000, 0x218 Bytes, ...)
T54A38 000:316.139   Data:  00 BE 0A E0 0D 78 2D 06 68 40 08 24 40 00 00 D3 ...
T54A38 000:316.537   CPU_WriteMem(536 bytes @ 0x20000000)
T54A38 000:318.715 - 2.585ms returns 0x218
T54A38 000:318.838 JLINK_HasError()
T54A38 000:318.852 JLINK_WriteReg(R0, 0x08000000)
T54A38 000:318.865 - 0.013ms returns 0
T54A38 000:318.874 JLINK_WriteReg(R1, 0x007A1200)
T54A38 000:318.884 - 0.009ms returns 0
T54A38 000:318.892 JLINK_WriteReg(R2, 0x00000001)
T54A38 000:318.900 - 0.007ms returns 0
T54A38 000:318.909 JLINK_WriteReg(R3, 0x00000000)
T54A38 000:318.917 - 0.007ms returns 0
T54A38 000:318.925 JLINK_WriteReg(R4, 0x00000000)
T54A38 000:318.933 - 0.007ms returns 0
T54A38 000:318.942 JLINK_WriteReg(R5, 0x00000000)
T54A38 000:318.950 - 0.007ms returns 0
T54A38 000:318.958 JLINK_WriteReg(R6, 0x00000000)
T54A38 000:318.966 - 0.007ms returns 0
T54A38 000:318.975 JLINK_WriteReg(R7, 0x00000000)
T54A38 000:318.983 - 0.007ms returns 0
T54A38 000:318.992 JLINK_WriteReg(R8, 0x00000000)
T54A38 000:318.999 - 0.007ms returns 0
T54A38 000:319.008 JLINK_WriteReg(R9, 0x20000200)
T54A38 000:319.015 - 0.007ms returns 0
T54A38 000:319.024 JLINK_WriteReg(R10, 0x00000000)
T54A38 000:319.032 - 0.007ms returns 0
T54A38 000:319.041 JLINK_WriteReg(R11, 0x00000000)
T54A38 000:319.049 - 0.007ms returns 0
T54A38 000:319.057 JLINK_WriteReg(R12, 0x00000000)
T54A38 000:319.065 - 0.007ms returns 0
T54A38 000:319.074 JLINK_WriteReg(R13 (SP), 0x20002000)
T54A38 000:319.083 - 0.009ms returns 0
T54A38 000:319.092 JLINK_WriteReg(R14, 0x20000001)
T54A38 000:319.100 - 0.008ms returns 0
T54A38 000:319.134 JLINK_WriteReg(R15 (PC), 0x20000020)
T54A38 000:319.142 - 0.033ms returns 0
T54A38 000:319.151 JLINK_WriteReg(XPSR, 0x01000000)
T54A38 000:319.166 - 0.015ms returns 0
T54A38 000:319.175 JLINK_WriteReg(MSP, 0x20002000)
T54A38 000:319.183 - 0.007ms returns 0
T54A38 000:319.192 JLINK_WriteReg(PSP, 0x20002000)
T54A38 000:319.199 - 0.007ms returns 0
T54A38 000:319.208 JLINK_WriteReg(CFBP, 0x00000000)
T54A38 000:319.216 - 0.007ms returns 0
T54A38 000:319.225 JLINK_SetBPEx(Addr = 0x20000000, Type = 0xFFFFFFF2)
T54A38 000:319.239   CPU_ReadMem(2 bytes @ 0x20000000)
T54A38 000:319.682 - 0.457ms returns 0x00000001
T54A38 000:319.717 JLINK_Go()
T54A38 000:319.735   CPU_WriteMem(2 bytes @ 0x20000000)
T54A38 000:320.131   CPU_ReadMem(4 bytes @ 0xE0001000)
T54A38 000:320.689   CPU_WriteMem(4 bytes @ 0xE0001000)
T54A38 000:321.076   CPU_WriteMem(4 bytes @ 0xE0002008)
T54A38 000:321.103   CPU_WriteMem(4 bytes @ 0xE000200C)
T54A38 000:321.116   CPU_WriteMem(4 bytes @ 0xE0002010)
T54A38 000:321.129   CPU_WriteMem(4 bytes @ 0xE0002014)
T54A38 000:322.231   CPU_WriteMem(4 bytes @ 0xE0001004)
T54A38 000:326.900   Memory map 'after startup completion point' is active
T54A38 000:326.920 - 7.202ms
T54A38 000:326.967 JLINK_IsHalted()
T54A38 000:328.812   CPU_ReadMem(2 bytes @ 0x20000000)
T54A38 000:329.062 - 2.095ms returns TRUE
T54A38 000:329.079 JLINK_ReadReg(R15 (PC))
T54A38 000:329.085 - 0.006ms returns 0x20000000
T54A38 000:329.090 JLINK_ClrBPEx(BPHandle = 0x00000001)
T54A38 000:329.094 - 0.004ms returns 0x00
T54A38 000:329.098 JLINK_ReadReg(R0)
T54A38 000:329.102 - 0.003ms returns 0x00000000
T54A38 000:329.500 JLINK_HasError()
T54A38 000:329.522 JLINK_WriteReg(R0, 0x08000000)
T54A38 000:329.534 - 0.012ms returns 0
T54A38 000:329.544 JLINK_WriteReg(R1, 0x00000800)
T54A38 000:329.551 - 0.007ms returns 0
T54A38 000:329.560 JLINK_WriteReg(R2, 0x000000FF)
T54A38 000:329.568 - 0.007ms returns 0
T54A38 000:329.576 JLINK_WriteReg(R3, 0x00000000)
T54A38 000:329.584 - 0.007ms returns 0
T54A38 000:329.594 JLINK_WriteReg(R4, 0x00000000)
T54A38 000:329.602 - 0.007ms returns 0
T54A38 000:329.610 JLINK_WriteReg(R5, 0x00000000)
T54A38 000:329.618 - 0.007ms returns 0
T54A38 000:329.626 JLINK_WriteReg(R6, 0x00000000)
T54A38 000:329.634 - 0.007ms returns 0
T54A38 000:329.642 JLINK_WriteReg(R7, 0x00000000)
T54A38 000:329.650 - 0.007ms returns 0
T54A38 000:329.659 JLINK_WriteReg(R8, 0x00000000)
T54A38 000:329.666 - 0.007ms returns 0
T54A38 000:329.675 JLINK_WriteReg(R9, 0x20000200)
T54A38 000:329.682 - 0.007ms returns 0
T54A38 000:329.691 JLINK_WriteReg(R10, 0x00000000)
T54A38 000:329.698 - 0.007ms returns 0
T54A38 000:329.707 JLINK_WriteReg(R11, 0x00000000)
T54A38 000:329.714 - 0.007ms returns 0
T54A38 000:329.723 JLINK_WriteReg(R12, 0x00000000)
T54A38 000:329.731 - 0.008ms returns 0
T54A38 000:329.741 JLINK_WriteReg(R13 (SP), 0x20002000)
T54A38 000:329.750 - 0.009ms returns 0
T54A38 000:329.759 JLINK_WriteReg(R14, 0x20000001)
T54A38 000:329.767 - 0.007ms returns 0
T54A38 000:329.776 JLINK_WriteReg(R15 (PC), 0x200000C8)
T54A38 000:329.783 - 0.007ms returns 0
T54A38 000:329.792 JLINK_WriteReg(XPSR, 0x01000000)
T54A38 000:329.800 - 0.008ms returns 0
T54A38 000:329.809 JLINK_WriteReg(MSP, 0x20002000)
T54A38 000:329.817 - 0.007ms returns 0
T54A38 000:329.826 JLINK_WriteReg(PSP, 0x20002000)
T54A38 000:329.833 - 0.007ms returns 0
T54A38 000:329.842 JLINK_WriteReg(CFBP, 0x00000000)
T54A38 000:329.849 - 0.007ms returns 0
T54A38 000:329.858 JLINK_SetBPEx(Addr = 0x20000000, Type = 0xFFFFFFF2)
T54A38 000:329.867 - 0.009ms returns 0x00000002
T54A38 000:329.876 JLINK_Go()
T54A38 000:329.892   CPU_ReadMem(4 bytes @ 0xE0001000)
T54A38 000:335.172 - 5.295ms
T54A38 000:335.254 JLINK_IsHalted()
T54A38 000:337.315   CPU_ReadMem(2 bytes @ 0x20000000)
T54A38 000:337.710 - 2.455ms returns TRUE
T54A38 000:337.752 JLINK_ReadReg(R15 (PC))
T54A38 000:337.759 - 0.006ms returns 0x20000000
T54A38 000:337.763 JLINK_ClrBPEx(BPHandle = 0x00000002)
T54A38 000:337.767 - 0.003ms returns 0x00
T54A38 000:337.771 JLINK_ReadReg(R0)
T54A38 000:337.775 - 0.003ms returns 0x00000001
T54A38 000:337.779 JLINK_HasError()
T54A38 000:337.791 JLINK_WriteReg(R0, 0x08000000)
T54A38 000:337.795 - 0.003ms returns 0
T54A38 000:337.799 JLINK_WriteReg(R1, 0x00000800)
T54A38 000:337.803 - 0.003ms returns 0
T54A38 000:337.807 JLINK_WriteReg(R2, 0x000000FF)
T54A38 000:337.810 - 0.003ms returns 0
T54A38 000:337.814 JLINK_WriteReg(R3, 0x00000000)
T54A38 000:337.817 - 0.003ms returns 0
T54A38 000:337.821 JLINK_WriteReg(R4, 0x00000000)
T54A38 000:337.824 - 0.003ms returns 0
T54A38 000:337.828 JLINK_WriteReg(R5, 0x00000000)
T54A38 000:337.831 - 0.003ms returns 0
T54A38 000:337.835 JLINK_WriteReg(R6, 0x00000000)
T54A38 000:337.838 - 0.003ms returns 0
T54A38 000:337.842 JLINK_WriteReg(R7, 0x00000000)
T54A38 000:337.845 - 0.003ms returns 0
T54A38 000:337.849 JLINK_WriteReg(R8, 0x00000000)
T54A38 000:337.852 - 0.003ms returns 0
T54A38 000:337.856 JLINK_WriteReg(R9, 0x20000200)
T54A38 000:337.859 - 0.003ms returns 0
T54A38 000:337.863 JLINK_WriteReg(R10, 0x00000000)
T54A38 000:337.867 - 0.003ms returns 0
T54A38 000:337.870 JLINK_WriteReg(R11, 0x00000000)
T54A38 000:337.873 - 0.003ms returns 0
T54A38 000:337.877 JLINK_WriteReg(R12, 0x00000000)
T54A38 000:337.880 - 0.003ms returns 0
T54A38 000:337.884 JLINK_WriteReg(R13 (SP), 0x20002000)
T54A38 000:337.888 - 0.003ms returns 0
T54A38 000:337.892 JLINK_WriteReg(R14, 0x20000001)
T54A38 000:337.895 - 0.003ms returns 0
T54A38 000:337.899 JLINK_WriteReg(R15 (PC), 0x20000100)
T54A38 000:337.902 - 0.003ms returns 0
T54A38 000:337.906 JLINK_WriteReg(XPSR, 0x01000000)
T54A38 000:337.910 - 0.003ms returns 0
T54A38 000:337.913 JLINK_WriteReg(MSP, 0x20002000)
T54A38 000:337.917 - 0.003ms returns 0
T54A38 000:337.921 JLINK_WriteReg(PSP, 0x20002000)
T54A38 000:337.924 - 0.003ms returns 0
T54A38 000:337.928 JLINK_WriteReg(CFBP, 0x00000000)
T54A38 000:337.931 - 0.003ms returns 0
T54A38 000:337.935 JLINK_SetBPEx(Addr = 0x20000000, Type = 0xFFFFFFF2)
T54A38 000:337.939 - 0.004ms returns 0x00000003
T54A38 000:337.943 JLINK_Go()
T54A38 000:337.951   CPU_ReadMem(4 bytes @ 0xE0001000)
T54A38 000:339.976 - 2.032ms
T54A38 000:340.010 JLINK_IsHalted()
T54A38 000:340.248 - 0.237ms returns FALSE
T54A38 000:340.263 JLINK_HasError()
T54A38 000:349.605 JLINK_IsHalted()
T54A38 000:349.988 - 0.382ms returns FALSE
T54A38 000:350.022 JLINK_HasError()
T54A38 000:351.124 JLINK_IsHalted()
T54A38 000:351.420 - 0.295ms returns FALSE
T54A38 000:351.464 JLINK_HasError()
T54A38 000:352.649 JLINK_IsHalted()
T54A38 000:353.330 - 0.679ms returns FALSE
T54A38 000:353.460 JLINK_HasError()
T54A38 000:355.841 JLINK_IsHalted()
T54A38 000:358.139 - 2.297ms returns FALSE
T54A38 000:358.174 JLINK_HasError()
T54A38 000:360.522 JLINK_IsHalted()
T54A38 000:360.846 - 0.323ms returns FALSE
T54A38 000:360.874 JLINK_HasError()
T54A38 000:362.152 JLINK_IsHalted()
T54A38 000:364.152   CPU_ReadMem(2 bytes @ 0x20000000)
T54A38 000:364.411 - 2.258ms returns TRUE
T54A38 000:364.443 JLINK_ReadReg(R15 (PC))
T54A38 000:364.454 - 0.011ms returns 0x20000000
T54A38 000:364.463 JLINK_ClrBPEx(BPHandle = 0x00000003)
T54A38 000:364.471 - 0.008ms returns 0x00
T54A38 000:364.480 JLINK_ReadReg(R0)
T54A38 000:364.488 - 0.007ms returns 0x00000000
T54A38 000:365.231 JLINK_HasError()
T54A38 000:365.251 JLINK_WriteReg(R0, 0x08000800)
T54A38 000:365.263 - 0.011ms returns 0
T54A38 000:365.272 JLINK_WriteReg(R1, 0x00000800)
T54A38 000:365.280 - 0.008ms returns 0
T54A38 000:365.289 JLINK_WriteReg(R2, 0x000000FF)
T54A38 000:365.301 - 0.011ms returns 0
T54A38 000:365.305 JLINK_WriteReg(R3, 0x00000000)
T54A38 000:365.308 - 0.003ms returns 0
T54A38 000:365.312 JLINK_WriteReg(R4, 0x00000000)
T54A38 000:365.315 - 0.003ms returns 0
T54A38 000:365.319 JLINK_WriteReg(R5, 0x00000000)
T54A38 000:365.323 - 0.003ms returns 0
T54A38 000:365.326 JLINK_WriteReg(R6, 0x00000000)
T54A38 000:365.330 - 0.003ms returns 0
T54A38 000:365.334 JLINK_WriteReg(R7, 0x00000000)
T54A38 000:365.337 - 0.003ms returns 0
T54A38 000:365.341 JLINK_WriteReg(R8, 0x00000000)
T54A38 000:365.345 - 0.003ms returns 0
T54A38 000:365.348 JLINK_WriteReg(R9, 0x20000200)
T54A38 000:365.358 - 0.009ms returns 0
T54A38 000:365.362 JLINK_WriteReg(R10, 0x00000000)
T54A38 000:365.365 - 0.003ms returns 0
T54A38 000:365.369 JLINK_WriteReg(R11, 0x00000000)
T54A38 000:365.373 - 0.003ms returns 0
T54A38 000:365.377 JLINK_WriteReg(R12, 0x00000000)
T54A38 000:365.380 - 0.003ms returns 0
T54A38 000:365.384 JLINK_WriteReg(R13 (SP), 0x20002000)
T54A38 000:365.388 - 0.003ms returns 0
T54A38 000:365.392 JLINK_WriteReg(R14, 0x20000001)
T54A38 000:365.395 - 0.003ms returns 0
T54A38 000:365.399 JLINK_WriteReg(R15 (PC), 0x200000C8)
T54A38 000:365.403 - 0.003ms returns 0
T54A38 000:365.407 JLINK_WriteReg(XPSR, 0x01000000)
T54A38 000:365.410 - 0.003ms returns 0
T54A38 000:365.414 JLINK_WriteReg(MSP, 0x20002000)
T54A38 000:365.418 - 0.003ms returns 0
T54A38 000:365.421 JLINK_WriteReg(PSP, 0x20002000)
T54A38 000:365.425 - 0.003ms returns 0
T54A38 000:365.429 JLINK_WriteReg(CFBP, 0x00000000)
T54A38 000:365.432 - 0.003ms returns 0
T54A38 000:365.436 JLINK_SetBPEx(Addr = 0x20000000, Type = 0xFFFFFFF2)
T54A38 000:365.441 - 0.004ms returns 0x00000004
T54A38 000:365.445 JLINK_Go()
T54A38 000:365.453   CPU_ReadMem(4 bytes @ 0xE0001000)
T54A38 000:367.469 - 2.023ms
T54A38 000:367.501 JLINK_IsHalted()
T54A38 000:369.476   CPU_ReadMem(2 bytes @ 0x20000000)
T54A38 000:369.805 - 2.303ms returns TRUE
T54A38 000:369.859 JLINK_ReadReg(R15 (PC))
T54A38 000:369.865 - 0.005ms returns 0x20000000
T54A38 000:369.869 JLINK_ClrBPEx(BPHandle = 0x00000004)
T54A38 000:369.873 - 0.003ms returns 0x00
T54A38 000:369.877 JLINK_ReadReg(R0)
T54A38 000:369.881 - 0.003ms returns 0x00000001
T54A38 000:369.887 JLINK_HasError()
T54A38 000:369.892 JLINK_WriteReg(R0, 0x08000800)
T54A38 000:369.896 - 0.004ms returns 0
T54A38 000:369.900 JLINK_WriteReg(R1, 0x00000800)
T54A38 000:369.903 - 0.003ms returns 0
T54A38 000:369.907 JLINK_WriteReg(R2, 0x000000FF)
T54A38 000:369.911 - 0.003ms returns 0
T54A38 000:369.915 JLINK_WriteReg(R3, 0x00000000)
T54A38 000:369.918 - 0.003ms returns 0
T54A38 000:369.922 JLINK_WriteReg(R4, 0x00000000)
T54A38 000:369.926 - 0.003ms returns 0
T54A38 000:369.929 JLINK_WriteReg(R5, 0x00000000)
T54A38 000:369.933 - 0.003ms returns 0
T54A38 000:369.937 JLINK_WriteReg(R6, 0x00000000)
T54A38 000:369.940 - 0.003ms returns 0
T54A38 000:369.944 JLINK_WriteReg(R7, 0x00000000)
T54A38 000:369.947 - 0.003ms returns 0
T54A38 000:369.951 JLINK_WriteReg(R8, 0x00000000)
T54A38 000:369.955 - 0.003ms returns 0
T54A38 000:369.959 JLINK_WriteReg(R9, 0x20000200)
T54A38 000:369.962 - 0.003ms returns 0
T54A38 000:369.972 JLINK_WriteReg(R10, 0x00000000)
T54A38 000:369.976 - 0.003ms returns 0
T54A38 000:369.982 JLINK_WriteReg(R11, 0x00000000)
T54A38 000:369.986 - 0.003ms returns 0
T54A38 000:369.990 JLINK_WriteReg(R12, 0x00000000)
T54A38 000:369.993 - 0.003ms returns 0
T54A38 000:369.997 JLINK_WriteReg(R13 (SP), 0x20002000)
T54A38 000:370.001 - 0.003ms returns 0
T54A38 000:370.005 JLINK_WriteReg(R14, 0x20000001)
T54A38 000:370.008 - 0.003ms returns 0
T54A38 000:370.012 JLINK_WriteReg(R15 (PC), 0x20000100)
T54A38 000:370.016 - 0.003ms returns 0
T54A38 000:370.020 JLINK_WriteReg(XPSR, 0x01000000)
T54A38 000:370.023 - 0.003ms returns 0
T54A38 000:370.027 JLINK_WriteReg(MSP, 0x20002000)
T54A38 000:370.030 - 0.003ms returns 0
T54A38 000:370.034 JLINK_WriteReg(PSP, 0x20002000)
T54A38 000:370.038 - 0.003ms returns 0
T54A38 000:370.042 JLINK_WriteReg(CFBP, 0x00000000)
T54A38 000:370.045 - 0.003ms returns 0
T54A38 000:370.050 JLINK_SetBPEx(Addr = 0x20000000, Type = 0xFFFFFFF2)
T54A38 000:370.054 - 0.004ms returns 0x00000005
T54A38 000:370.057 JLINK_Go()
T54A38 000:370.065   CPU_ReadMem(4 bytes @ 0xE0001000)
T54A38 000:375.908 - 5.849ms
T54A38 000:375.984 JLINK_IsHalted()
T54A38 000:376.318 - 0.333ms returns FALSE
T54A38 000:376.370 JLINK_HasError()
T54A38 000:382.259 JLINK_IsHalted()
T54A38 000:382.662 - 0.402ms returns FALSE
T54A38 000:382.695 JLINK_HasError()
T54A38 000:383.768 JLINK_IsHalted()
T54A38 000:384.262 - 0.493ms returns FALSE
T54A38 000:384.295 JLINK_HasError()
T54A38 000:385.418 JLINK_IsHalted()
T54A38 000:388.495 - 3.075ms returns FALSE
T54A38 000:388.533 JLINK_HasError()
T54A38 000:390.000 JLINK_IsHalted()
T54A38 000:390.267 - 0.266ms returns FALSE
T54A38 000:390.296 JLINK_HasError()
T54A38 000:391.533 JLINK_IsHalted()
T54A38 000:391.841 - 0.308ms returns FALSE
T54A38 000:391.869 JLINK_HasError()
T54A38 000:393.067 JLINK_IsHalted()
T54A38 000:393.312 - 0.244ms returns FALSE
T54A38 000:393.327 JLINK_HasError()
T54A38 000:394.596 JLINK_IsHalted()
T54A38 000:394.896 - 0.300ms returns FALSE
T54A38 000:394.924 JLINK_HasError()
T54A38 000:396.135 JLINK_IsHalted()
T54A38 000:396.434 - 0.298ms returns FALSE
T54A38 000:396.475 JLINK_HasError()
T54A38 000:397.677 JLINK_IsHalted()
T54A38 000:399.700   CPU_ReadMem(2 bytes @ 0x20000000)
T54A38 000:400.174 - 2.495ms returns TRUE
T54A38 000:400.271 JLINK_ReadReg(R15 (PC))
T54A38 000:400.293 - 0.021ms returns 0x20000000
T54A38 000:400.309 JLINK_ClrBPEx(BPHandle = 0x00000005)
T54A38 000:400.323 - 0.014ms returns 0x00
T54A38 000:400.339 JLINK_ReadReg(R0)
T54A38 000:400.353 - 0.013ms returns 0x00000000
T54A38 000:401.034 JLINK_HasError()
T54A38 000:401.044 JLINK_WriteReg(R0, 0x08001000)
T54A38 000:401.050 - 0.005ms returns 0
T54A38 000:401.054 JLINK_WriteReg(R1, 0x00000800)
T54A38 000:401.057 - 0.003ms returns 0
T54A38 000:401.061 JLINK_WriteReg(R2, 0x000000FF)
T54A38 000:401.065 - 0.003ms returns 0
T54A38 000:401.068 JLINK_WriteReg(R3, 0x00000000)
T54A38 000:401.072 - 0.003ms returns 0
T54A38 000:401.075 JLINK_WriteReg(R4, 0x00000000)
T54A38 000:401.079 - 0.003ms returns 0
T54A38 000:401.083 JLINK_WriteReg(R5, 0x00000000)
T54A38 000:401.086 - 0.003ms returns 0
T54A38 000:401.090 JLINK_WriteReg(R6, 0x00000000)
T54A38 000:401.093 - 0.003ms returns 0
T54A38 000:401.097 JLINK_WriteReg(R7, 0x00000000)
T54A38 000:401.100 - 0.003ms returns 0
T54A38 000:401.104 JLINK_WriteReg(R8, 0x00000000)
T54A38 000:401.107 - 0.003ms returns 0
T54A38 000:401.111 JLINK_WriteReg(R9, 0x20000200)
T54A38 000:401.115 - 0.003ms returns 0
T54A38 000:401.119 JLINK_WriteReg(R10, 0x00000000)
T54A38 000:401.122 - 0.003ms returns 0
T54A38 000:401.126 JLINK_WriteReg(R11, 0x00000000)
T54A38 000:401.129 - 0.003ms returns 0
T54A38 000:401.133 JLINK_WriteReg(R12, 0x00000000)
T54A38 000:401.136 - 0.003ms returns 0
T54A38 000:401.140 JLINK_WriteReg(R13 (SP), 0x20002000)
T54A38 000:401.144 - 0.003ms returns 0
T54A38 000:401.147 JLINK_WriteReg(R14, 0x20000001)
T54A38 000:401.151 - 0.003ms returns 0
T54A38 000:401.155 JLINK_WriteReg(R15 (PC), 0x200000C8)
T54A38 000:401.158 - 0.003ms returns 0
T54A38 000:401.162 JLINK_WriteReg(XPSR, 0x01000000)
T54A38 000:401.165 - 0.003ms returns 0
T54A38 000:401.169 JLINK_WriteReg(MSP, 0x20002000)
T54A38 000:401.172 - 0.003ms returns 0
T54A38 000:401.176 JLINK_WriteReg(PSP, 0x20002000)
T54A38 000:401.180 - 0.003ms returns 0
T54A38 000:401.183 JLINK_WriteReg(CFBP, 0x00000000)
T54A38 000:401.187 - 0.003ms returns 0
T54A38 000:401.191 JLINK_SetBPEx(Addr = 0x20000000, Type = 0xFFFFFFF2)
T54A38 000:401.195 - 0.004ms returns 0x00000006
T54A38 000:401.199 JLINK_Go()
T54A38 000:401.207   CPU_ReadMem(4 bytes @ 0xE0001000)
T54A38 000:418.923 - 17.723ms
T54A38 000:418.990 JLINK_IsHalted()
T54A38 000:421.007   CPU_ReadMem(2 bytes @ 0x20000000)
T54A38 000:421.343 - 2.352ms returns TRUE
T54A38 000:421.386 JLINK_ReadReg(R15 (PC))
T54A38 000:421.399 - 0.011ms returns 0x20000000
T54A38 000:421.408 JLINK_ClrBPEx(BPHandle = 0x00000006)
T54A38 000:421.416 - 0.008ms returns 0x00
T54A38 000:421.425 JLINK_ReadReg(R0)
T54A38 000:421.433 - 0.007ms returns 0x00000001
T54A38 000:421.442 JLINK_HasError()
T54A38 000:421.452 JLINK_WriteReg(R0, 0x08001000)
T54A38 000:421.460 - 0.008ms returns 0
T54A38 000:421.469 JLINK_WriteReg(R1, 0x00000800)
T54A38 000:421.476 - 0.007ms returns 0
T54A38 000:421.485 JLINK_WriteReg(R2, 0x000000FF)
T54A38 000:421.492 - 0.007ms returns 0
T54A38 000:421.501 JLINK_WriteReg(R3, 0x00000000)
T54A38 000:421.509 - 0.007ms returns 0
T54A38 000:421.517 JLINK_WriteReg(R4, 0x00000000)
T54A38 000:421.535 - 0.018ms returns 0
T54A38 000:421.544 JLINK_WriteReg(R5, 0x00000000)
T54A38 000:421.552 - 0.007ms returns 0
T54A38 000:421.561 JLINK_WriteReg(R6, 0x00000000)
T54A38 000:421.569 - 0.007ms returns 0
T54A38 000:421.577 JLINK_WriteReg(R7, 0x00000000)
T54A38 000:421.585 - 0.007ms returns 0
T54A38 000:421.593 JLINK_WriteReg(R8, 0x00000000)
T54A38 000:421.601 - 0.007ms returns 0
T54A38 000:421.609 JLINK_WriteReg(R9, 0x20000200)
T54A38 000:421.617 - 0.007ms returns 0
T54A38 000:421.626 JLINK_WriteReg(R10, 0x00000000)
T54A38 000:421.633 - 0.007ms returns 0
T54A38 000:421.642 JLINK_WriteReg(R11, 0x00000000)
T54A38 000:421.649 - 0.007ms returns 0
T54A38 000:421.658 JLINK_WriteReg(R12, 0x00000000)
T54A38 000:421.665 - 0.007ms returns 0
T54A38 000:421.674 JLINK_WriteReg(R13 (SP), 0x20002000)
T54A38 000:421.682 - 0.008ms returns 0
T54A38 000:421.690 JLINK_WriteReg(R14, 0x20000001)
T54A38 000:421.698 - 0.007ms returns 0
T54A38 000:421.706 JLINK_WriteReg(R15 (PC), 0x20000100)
T54A38 000:421.714 - 0.007ms returns 0
T54A38 000:421.718 JLINK_WriteReg(XPSR, 0x01000000)
T54A38 000:421.721 - 0.003ms returns 0
T54A38 000:421.725 JLINK_WriteReg(MSP, 0x20002000)
T54A38 000:421.729 - 0.003ms returns 0
T54A38 000:421.733 JLINK_WriteReg(PSP, 0x20002000)
T54A38 000:421.736 - 0.003ms returns 0
T54A38 000:421.740 JLINK_WriteReg(CFBP, 0x00000000)
T54A38 000:421.743 - 0.003ms returns 0
T54A38 000:421.747 JLINK_SetBPEx(Addr = 0x20000000, Type = 0xFFFFFFF2)
T54A38 000:421.751 - 0.004ms returns 0x00000007
T54A38 000:421.755 JLINK_Go()
T54A38 000:421.763   CPU_ReadMem(4 bytes @ 0xE0001000)
T54A38 000:423.768 - 2.012ms
T54A38 000:423.794 JLINK_IsHalted()
T54A38 000:424.098 - 0.303ms returns FALSE
T54A38 000:424.132 JLINK_HasError()
T54A38 000:427.017 JLINK_IsHalted()
T54A38 000:427.312 - 0.294ms returns FALSE
T54A38 000:427.344 JLINK_HasError()
T54A38 000:428.541 JLINK_IsHalted()
T54A38 000:428.829 - 0.287ms returns FALSE
T54A38 000:428.857 JLINK_HasError()
T54A38 000:430.060 JLINK_IsHalted()
T54A38 000:430.377 - 0.315ms returns FALSE
T54A38 000:430.457 JLINK_HasError()
T54A38 000:432.779 JLINK_IsHalted()
T54A38 000:433.084 - 0.304ms returns FALSE
T54A38 000:433.097 JLINK_HasError()
T54A38 000:434.309 JLINK_IsHalted()
T54A38 000:434.597 - 0.288ms returns FALSE
T54A38 000:434.626 JLINK_HasError()
T54A38 000:435.838 JLINK_IsHalted()
T54A38 000:436.117 - 0.279ms returns FALSE
T54A38 000:436.146 JLINK_HasError()
T54A38 000:437.364 JLINK_IsHalted()
T54A38 000:437.715 - 0.350ms returns FALSE
T54A38 000:437.745 JLINK_HasError()
T54A38 000:438.944 JLINK_IsHalted()
T54A38 000:439.196 - 0.252ms returns FALSE
T54A38 000:439.211 JLINK_HasError()
T54A38 000:440.472 JLINK_IsHalted()
T54A38 000:440.773 - 0.300ms returns FALSE
T54A38 000:440.801 JLINK_HasError()
T54A38 000:442.003 JLINK_IsHalted()
T54A38 000:442.292 - 0.288ms returns FALSE
T54A38 000:442.320 JLINK_HasError()
T54A38 000:443.535 JLINK_IsHalted()
T54A38 000:443.805 - 0.270ms returns FALSE
T54A38 000:443.833 JLINK_HasError()
T54A38 000:445.063 JLINK_IsHalted()
T54A38 000:445.340 - 0.276ms returns FALSE
T54A38 000:445.368 JLINK_HasError()
T54A38 000:446.590 JLINK_IsHalted()
T54A38 000:448.896   CPU_ReadMem(2 bytes @ 0x20000000)
T54A38 000:449.132 - 2.541ms returns TRUE
T54A38 000:449.147 JLINK_ReadReg(R15 (PC))
T54A38 000:449.152 - 0.005ms returns 0x20000000
T54A38 000:449.163 JLINK_ClrBPEx(BPHandle = 0x00000007)
T54A38 000:449.167 - 0.004ms returns 0x00
T54A38 000:449.171 JLINK_ReadReg(R0)
T54A38 000:449.175 - 0.003ms returns 0x00000000
T54A38 000:449.776 JLINK_HasError()
T54A38 000:449.795 JLINK_WriteReg(R0, 0x08001800)
T54A38 000:449.806 - 0.010ms returns 0
T54A38 000:449.824 JLINK_WriteReg(R1, 0x00000800)
T54A38 000:449.832 - 0.007ms returns 0
T54A38 000:449.840 JLINK_WriteReg(R2, 0x000000FF)
T54A38 000:449.848 - 0.007ms returns 0
T54A38 000:449.859 JLINK_WriteReg(R3, 0x00000000)
T54A38 000:449.867 - 0.007ms returns 0
T54A38 000:449.875 JLINK_WriteReg(R4, 0x00000000)
T54A38 000:449.942 - 0.066ms returns 0
T54A38 000:449.959 JLINK_WriteReg(R5, 0x00000000)
T54A38 000:449.966 - 0.007ms returns 0
T54A38 000:449.974 JLINK_WriteReg(R6, 0x00000000)
T54A38 000:449.981 - 0.007ms returns 0
T54A38 000:449.993 JLINK_WriteReg(R7, 0x00000000)
T54A38 000:450.000 - 0.007ms returns 0
T54A38 000:450.008 JLINK_WriteReg(R8, 0x00000000)
T54A38 000:450.016 - 0.007ms returns 0
T54A38 000:450.027 JLINK_WriteReg(R9, 0x20000200)
T54A38 000:450.034 - 0.007ms returns 0
T54A38 000:450.043 JLINK_WriteReg(R10, 0x00000000)
T54A38 000:450.050 - 0.007ms returns 0
T54A38 000:450.061 JLINK_WriteReg(R11, 0x00000000)
T54A38 000:450.069 - 0.007ms returns 0
T54A38 000:450.077 JLINK_WriteReg(R12, 0x00000000)
T54A38 000:450.084 - 0.007ms returns 0
T54A38 000:450.095 JLINK_WriteReg(R13 (SP), 0x20002000)
T54A38 000:450.103 - 0.007ms returns 0
T54A38 000:450.112 JLINK_WriteReg(R14, 0x20000001)
T54A38 000:450.120 - 0.007ms returns 0
T54A38 000:450.131 JLINK_WriteReg(R15 (PC), 0x200000C8)
T54A38 000:450.138 - 0.007ms returns 0
T54A38 000:450.147 JLINK_WriteReg(XPSR, 0x01000000)
T54A38 000:450.154 - 0.007ms returns 0
T54A38 000:450.165 JLINK_WriteReg(MSP, 0x20002000)
T54A38 000:450.172 - 0.007ms returns 0
T54A38 000:450.181 JLINK_WriteReg(PSP, 0x20002000)
T54A38 000:450.188 - 0.007ms returns 0
T54A38 000:450.199 JLINK_WriteReg(CFBP, 0x00000000)
T54A38 000:450.207 - 0.007ms returns 0
T54A38 000:450.216 JLINK_SetBPEx(Addr = 0x20000000, Type = 0xFFFFFFF2)
T54A38 000:450.224 - 0.008ms returns 0x00000008
T54A38 000:450.236 JLINK_Go()
T54A38 000:450.252   CPU_ReadMem(4 bytes @ 0xE0001000)
T54A38 000:467.711 - 17.474ms
T54A38 000:467.766 JLINK_IsHalted()
T54A38 000:469.699   CPU_ReadMem(2 bytes @ 0x20000000)
T54A38 000:470.091 - 2.325ms returns TRUE
T54A38 000:470.138 JLINK_ReadReg(R15 (PC))
T54A38 000:470.149 - 0.011ms returns 0x20000000
T54A38 000:470.165 JLINK_ClrBPEx(BPHandle = 0x00000008)
T54A38 000:470.174 - 0.009ms returns 0x00
T54A38 000:470.190 JLINK_ReadReg(R0)
T54A38 000:470.198 - 0.008ms returns 0x00000001
T54A38 000:470.210 JLINK_HasError()
T54A38 000:470.219 JLINK_WriteReg(R0, 0x08001800)
T54A38 000:470.227 - 0.008ms returns 0
T54A38 000:470.238 JLINK_WriteReg(R1, 0x00000800)
T54A38 000:470.246 - 0.007ms returns 0
T54A38 000:470.257 JLINK_WriteReg(R2, 0x000000FF)
T54A38 000:470.264 - 0.007ms returns 0
T54A38 000:470.275 JLINK_WriteReg(R3, 0x00000000)
T54A38 000:470.282 - 0.007ms returns 0
T54A38 000:470.293 JLINK_WriteReg(R4, 0x00000000)
T54A38 000:470.300 - 0.007ms returns 0
T54A38 000:470.311 JLINK_WriteReg(R5, 0x00000000)
T54A38 000:470.319 - 0.007ms returns 0
T54A38 000:470.331 JLINK_WriteReg(R6, 0x00000000)
T54A38 000:470.338 - 0.007ms returns 0
T54A38 000:470.349 JLINK_WriteReg(R7, 0x00000000)
T54A38 000:470.356 - 0.007ms returns 0
T54A38 000:470.367 JLINK_WriteReg(R8, 0x00000000)
T54A38 000:470.375 - 0.007ms returns 0
T54A38 000:470.386 JLINK_WriteReg(R9, 0x20000200)
T54A38 000:470.393 - 0.007ms returns 0
T54A38 000:470.404 JLINK_WriteReg(R10, 0x00000000)
T54A38 000:470.411 - 0.007ms returns 0
T54A38 000:470.422 JLINK_WriteReg(R11, 0x00000000)
T54A38 000:470.429 - 0.007ms returns 0
T54A38 000:470.441 JLINK_WriteReg(R12, 0x00000000)
T54A38 000:470.448 - 0.007ms returns 0
T54A38 000:470.459 JLINK_WriteReg(R13 (SP), 0x20002000)
T54A38 000:470.466 - 0.007ms returns 0
T54A38 000:470.477 JLINK_WriteReg(R14, 0x20000001)
T54A38 000:470.485 - 0.007ms returns 0
T54A38 000:470.496 JLINK_WriteReg(R15 (PC), 0x20000100)
T54A38 000:470.503 - 0.007ms returns 0
T54A38 000:470.514 JLINK_WriteReg(XPSR, 0x01000000)
T54A38 000:470.522 - 0.007ms returns 0
T54A38 000:470.533 JLINK_WriteReg(MSP, 0x20002000)
T54A38 000:470.540 - 0.007ms returns 0
T54A38 000:470.552 JLINK_WriteReg(PSP, 0x20002000)
T54A38 000:470.559 - 0.007ms returns 0
T54A38 000:470.570 JLINK_WriteReg(CFBP, 0x00000000)
T54A38 000:470.577 - 0.007ms returns 0
T54A38 000:470.588 JLINK_SetBPEx(Addr = 0x20000000, Type = 0xFFFFFFF2)
T54A38 000:470.596 - 0.008ms returns 0x00000009
T54A38 000:470.613 JLINK_Go()
T54A38 000:470.630   CPU_ReadMem(4 bytes @ 0xE0001000)
T54A38 000:472.865 - 2.251ms
T54A38 000:472.909 JLINK_IsHalted()
T54A38 000:473.203 - 0.294ms returns FALSE
T54A38 000:473.238 JLINK_HasError()
T54A38 000:474.311 JLINK_IsHalted()
T54A38 000:474.551 - 0.239ms returns FALSE
T54A38 000:474.565 JLINK_HasError()
T54A38 000:475.840 JLINK_IsHalted()
T54A38 000:476.117 - 0.277ms returns FALSE
T54A38 000:476.146 JLINK_HasError()
T54A38 000:477.371 JLINK_IsHalted()
T54A38 000:477.792 - 0.419ms returns FALSE
T54A38 000:477.871 JLINK_HasError()
T54A38 000:479.065 JLINK_IsHalted()
T54A38 000:479.317 - 0.251ms returns FALSE
T54A38 000:479.332 JLINK_HasError()
T54A38 000:480.594 JLINK_IsHalted()
T54A38 000:480.881 - 0.287ms returns FALSE
T54A38 000:480.910 JLINK_HasError()
T54A38 000:482.126 JLINK_IsHalted()
T54A38 000:482.447 - 0.320ms returns FALSE
T54A38 000:482.478 JLINK_HasError()
T54A38 000:483.681 JLINK_IsHalted()
T54A38 000:483.971 - 0.289ms returns FALSE
T54A38 000:483.999 JLINK_HasError()
T54A38 000:485.198 JLINK_IsHalted()
T54A38 000:485.488 - 0.289ms returns FALSE
T54A38 000:485.515 JLINK_HasError()
T54A38 000:486.733 JLINK_IsHalted()
T54A38 000:487.083 - 0.349ms returns FALSE
T54A38 000:487.097 JLINK_HasError()
T54A38 000:488.265 JLINK_IsHalted()
T54A38 000:488.555 - 0.289ms returns FALSE
T54A38 000:488.586 JLINK_HasError()
T54A38 000:489.784 JLINK_IsHalted()
T54A38 000:490.072 - 0.288ms returns FALSE
T54A38 000:490.086 JLINK_HasError()
T54A38 000:491.321 JLINK_IsHalted()
T54A38 000:491.611 - 0.290ms returns FALSE
T54A38 000:491.639 JLINK_HasError()
T54A38 000:492.849 JLINK_IsHalted()
T54A38 000:493.214 - 0.362ms returns FALSE
T54A38 000:493.330 JLINK_HasError()
T54A38 000:494.484 JLINK_IsHalted()
T54A38 000:494.752 - 0.268ms returns FALSE
T54A38 000:494.769 JLINK_HasError()
T54A38 000:496.021 JLINK_IsHalted()
T54A38 000:497.802   CPU_ReadMem(2 bytes @ 0x20000000)
T54A38 000:498.082 - 2.060ms returns TRUE
T54A38 000:498.112 JLINK_ReadReg(R15 (PC))
T54A38 000:498.121 - 0.009ms returns 0x20000000
T54A38 000:498.130 JLINK_ClrBPEx(BPHandle = 0x00000009)
T54A38 000:498.138 - 0.008ms returns 0x00
T54A38 000:498.147 JLINK_ReadReg(R0)
T54A38 000:498.154 - 0.007ms returns 0x00000000
T54A38 000:498.860 JLINK_HasError()
T54A38 000:498.880 JLINK_WriteReg(R0, 0x08002000)
T54A38 000:498.891 - 0.010ms returns 0
T54A38 000:498.900 JLINK_WriteReg(R1, 0x00000800)
T54A38 000:498.907 - 0.007ms returns 0
T54A38 000:498.916 JLINK_WriteReg(R2, 0x000000FF)
T54A38 000:498.923 - 0.007ms returns 0
T54A38 000:498.931 JLINK_WriteReg(R3, 0x00000000)
T54A38 000:498.938 - 0.007ms returns 0
T54A38 000:498.946 JLINK_WriteReg(R4, 0x00000000)
T54A38 000:498.954 - 0.007ms returns 0
T54A38 000:498.962 JLINK_WriteReg(R5, 0x00000000)
T54A38 000:498.970 - 0.007ms returns 0
T54A38 000:498.978 JLINK_WriteReg(R6, 0x00000000)
T54A38 000:498.985 - 0.007ms returns 0
T54A38 000:498.994 JLINK_WriteReg(R7, 0x00000000)
T54A38 000:499.001 - 0.007ms returns 0
T54A38 000:499.009 JLINK_WriteReg(R8, 0x00000000)
T54A38 000:499.016 - 0.007ms returns 0
T54A38 000:499.025 JLINK_WriteReg(R9, 0x20000200)
T54A38 000:499.032 - 0.007ms returns 0
T54A38 000:499.040 JLINK_WriteReg(R10, 0x00000000)
T54A38 000:499.047 - 0.007ms returns 0
T54A38 000:499.055 JLINK_WriteReg(R11, 0x00000000)
T54A38 000:499.063 - 0.007ms returns 0
T54A38 000:499.071 JLINK_WriteReg(R12, 0x00000000)
T54A38 000:499.078 - 0.007ms returns 0
T54A38 000:499.086 JLINK_WriteReg(R13 (SP), 0x20002000)
T54A38 000:499.094 - 0.007ms returns 0
T54A38 000:499.102 JLINK_WriteReg(R14, 0x20000001)
T54A38 000:499.109 - 0.007ms returns 0
T54A38 000:499.118 JLINK_WriteReg(R15 (PC), 0x200000C8)
T54A38 000:499.125 - 0.007ms returns 0
T54A38 000:499.134 JLINK_WriteReg(XPSR, 0x01000000)
T54A38 000:499.141 - 0.007ms returns 0
T54A38 000:499.149 JLINK_WriteReg(MSP, 0x20002000)
T54A38 000:499.156 - 0.007ms returns 0
T54A38 000:499.165 JLINK_WriteReg(PSP, 0x20002000)
T54A38 000:499.172 - 0.007ms returns 0
T54A38 000:499.184 JLINK_WriteReg(CFBP, 0x00000000)
T54A38 000:499.198 - 0.013ms returns 0
T54A38 000:499.205 JLINK_SetBPEx(Addr = 0x20000000, Type = 0xFFFFFFF2)
T54A38 000:499.209 - 0.004ms returns 0x0000000A
T54A38 000:499.213 JLINK_Go()
T54A38 000:499.221   CPU_ReadMem(4 bytes @ 0xE0001000)
T54A38 000:501.199 - 1.985ms
T54A38 000:501.239 JLINK_IsHalted()
T54A38 000:503.103   CPU_ReadMem(2 bytes @ 0x20000000)
T54A38 000:503.381 - 2.142ms returns TRUE
T54A38 000:503.424 JLINK_ReadReg(R15 (PC))
T54A38 000:503.434 - 0.009ms returns 0x20000000
T54A38 000:503.443 JLINK_ClrBPEx(BPHandle = 0x0000000A)
T54A38 000:503.450 - 0.007ms returns 0x00
T54A38 000:503.459 JLINK_ReadReg(R0)
T54A38 000:503.466 - 0.007ms returns 0x00000001
T54A38 000:503.474 JLINK_HasError()
T54A38 000:503.487 JLINK_WriteReg(R0, 0x08002000)
T54A38 000:503.495 - 0.008ms returns 0
T54A38 000:503.504 JLINK_WriteReg(R1, 0x00000800)
T54A38 000:503.511 - 0.007ms returns 0
T54A38 000:503.520 JLINK_WriteReg(R2, 0x000000FF)
T54A38 000:503.527 - 0.007ms returns 0
T54A38 000:503.541 JLINK_WriteReg(R3, 0x00000000)
T54A38 000:503.548 - 0.007ms returns 0
T54A38 000:503.560 JLINK_WriteReg(R4, 0x00000000)
T54A38 000:503.567 - 0.007ms returns 0
T54A38 000:503.575 JLINK_WriteReg(R5, 0x00000000)
T54A38 000:503.583 - 0.007ms returns 0
T54A38 000:503.596 JLINK_WriteReg(R6, 0x00000000)
T54A38 000:503.603 - 0.007ms returns 0
T54A38 000:503.611 JLINK_WriteReg(R7, 0x00000000)
T54A38 000:503.618 - 0.007ms returns 0
T54A38 000:503.630 JLINK_WriteReg(R8, 0x00000000)
T54A38 000:503.637 - 0.007ms returns 0
T54A38 000:503.645 JLINK_WriteReg(R9, 0x20000200)
T54A38 000:503.652 - 0.007ms returns 0
T54A38 000:503.664 JLINK_WriteReg(R10, 0x00000000)
T54A38 000:503.671 - 0.007ms returns 0
T54A38 000:503.679 JLINK_WriteReg(R11, 0x00000000)
T54A38 000:503.687 - 0.007ms returns 0
T54A38 000:503.698 JLINK_WriteReg(R12, 0x00000000)
T54A38 000:503.705 - 0.007ms returns 0
T54A38 000:503.713 JLINK_WriteReg(R13 (SP), 0x20002000)
T54A38 000:503.721 - 0.007ms returns 0
T54A38 000:503.734 JLINK_WriteReg(R14, 0x20000001)
T54A38 000:503.741 - 0.007ms returns 0
T54A38 000:503.750 JLINK_WriteReg(R15 (PC), 0x20000100)
T54A38 000:503.757 - 0.007ms returns 0
T54A38 000:503.768 JLINK_WriteReg(XPSR, 0x01000000)
T54A38 000:503.776 - 0.007ms returns 0
T54A38 000:503.811 JLINK_WriteReg(MSP, 0x20002000)
T54A38 000:503.819 - 0.008ms returns 0
T54A38 000:503.827 JLINK_WriteReg(PSP, 0x20002000)
T54A38 000:503.834 - 0.007ms returns 0
T54A38 000:503.842 JLINK_WriteReg(CFBP, 0x00000000)
T54A38 000:503.850 - 0.007ms returns 0
T54A38 000:503.858 JLINK_SetBPEx(Addr = 0x20000000, Type = 0xFFFFFFF2)
T54A38 000:503.866 - 0.007ms returns 0x0000000B
T54A38 000:503.874 JLINK_Go()
T54A38 000:503.887   CPU_ReadMem(4 bytes @ 0xE0001000)
T54A38 000:506.125 - 2.250ms
T54A38 000:506.151 JLINK_IsHalted()
T54A38 000:506.381 - 0.230ms returns FALSE
T54A38 000:506.395 JLINK_HasError()
T54A38 000:508.377 JLINK_IsHalted()
T54A38 000:508.877 - 0.498ms returns FALSE
T54A38 000:509.000 JLINK_HasError()
T54A38 000:513.096 JLINK_IsHalted()
T54A38 000:513.496 - 0.399ms returns FALSE
T54A38 000:513.529 JLINK_HasError()
T54A38 000:514.640 JLINK_IsHalted()
T54A38 000:514.957 - 0.317ms returns FALSE
T54A38 000:515.009 JLINK_HasError()
T54A38 000:516.165 JLINK_IsHalted()
T54A38 000:516.437 - 0.271ms returns FALSE
T54A38 000:516.465 JLINK_HasError()
T54A38 000:517.683 JLINK_IsHalted()
T54A38 000:517.961 - 0.277ms returns FALSE
T54A38 000:517.989 JLINK_HasError()
T54A38 000:519.215 JLINK_IsHalted()
T54A38 000:519.502 - 0.286ms returns FALSE
T54A38 000:519.530 JLINK_HasError()
T54A38 000:520.735 JLINK_IsHalted()
T54A38 000:520.982 - 0.246ms returns FALSE
T54A38 000:520.996 JLINK_HasError()
T54A38 000:522.296 JLINK_IsHalted()
T54A38 000:522.609 - 0.312ms returns FALSE
T54A38 000:522.623 JLINK_HasError()
T54A38 000:523.826 JLINK_IsHalted()
T54A38 000:524.261 - 0.433ms returns FALSE
T54A38 000:524.423 JLINK_HasError()
T54A38 000:526.979 JLINK_IsHalted()
T54A38 000:530.230   CPU_ReadMem(2 bytes @ 0x20000000)
T54A38 000:530.582 - 3.602ms returns TRUE
T54A38 000:530.647 JLINK_ReadReg(R15 (PC))
T54A38 000:530.665 - 0.017ms returns 0x20000000
T54A38 000:530.681 JLINK_ClrBPEx(BPHandle = 0x0000000B)
T54A38 000:530.696 - 0.014ms returns 0x00
T54A38 000:530.717 JLINK_ReadReg(R0)
T54A38 000:530.730 - 0.013ms returns 0x00000000
T54A38 000:531.857 JLINK_HasError()
T54A38 000:531.891 JLINK_WriteReg(R0, 0x08002800)
T54A38 000:531.910 - 0.018ms returns 0
T54A38 000:531.926 JLINK_WriteReg(R1, 0x00000800)
T54A38 000:531.939 - 0.013ms returns 0
T54A38 000:531.954 JLINK_WriteReg(R2, 0x000000FF)
T54A38 000:531.967 - 0.013ms returns 0
T54A38 000:531.982 JLINK_WriteReg(R3, 0x00000000)
T54A38 000:531.994 - 0.012ms returns 0
T54A38 000:532.009 JLINK_WriteReg(R4, 0x00000000)
T54A38 000:532.022 - 0.012ms returns 0
T54A38 000:532.037 JLINK_WriteReg(R5, 0x00000000)
T54A38 000:532.050 - 0.012ms returns 0
T54A38 000:532.065 JLINK_WriteReg(R6, 0x00000000)
T54A38 000:532.078 - 0.012ms returns 0
T54A38 000:532.092 JLINK_WriteReg(R7, 0x00000000)
T54A38 000:532.105 - 0.012ms returns 0
T54A38 000:532.120 JLINK_WriteReg(R8, 0x00000000)
T54A38 000:532.133 - 0.012ms returns 0
T54A38 000:532.148 JLINK_WriteReg(R9, 0x20000200)
T54A38 000:532.160 - 0.012ms returns 0
T54A38 000:532.175 JLINK_WriteReg(R10, 0x00000000)
T54A38 000:532.188 - 0.013ms returns 0
T54A38 000:532.204 JLINK_WriteReg(R11, 0x00000000)
T54A38 000:532.217 - 0.012ms returns 0
T54A38 000:532.232 JLINK_WriteReg(R12, 0x00000000)
T54A38 000:532.245 - 0.013ms returns 0
T54A38 000:532.260 JLINK_WriteReg(R13 (SP), 0x20002000)
T54A38 000:532.273 - 0.013ms returns 0
T54A38 000:532.288 JLINK_WriteReg(R14, 0x20000001)
T54A38 000:532.301 - 0.013ms returns 0
T54A38 000:532.337 JLINK_WriteReg(R15 (PC), 0x200000C8)
T54A38 000:532.350 - 0.013ms returns 0
T54A38 000:532.365 JLINK_WriteReg(XPSR, 0x01000000)
T54A38 000:532.378 - 0.013ms returns 0
T54A38 000:532.393 JLINK_WriteReg(MSP, 0x20002000)
T54A38 000:532.404 - 0.010ms returns 0
T54A38 000:532.411 JLINK_WriteReg(PSP, 0x20002000)
T54A38 000:532.417 - 0.006ms returns 0
T54A38 000:532.424 JLINK_WriteReg(CFBP, 0x00000000)
T54A38 000:532.428 - 0.003ms returns 0
T54A38 000:532.432 JLINK_SetBPEx(Addr = 0x20000000, Type = 0xFFFFFFF2)
T54A38 000:532.436 - 0.004ms returns 0x0000000C
T54A38 000:532.440 JLINK_Go()
T54A38 000:532.448   CPU_ReadMem(4 bytes @ 0xE0001000)
T54A38 000:534.490 - 2.049ms
T54A38 000:534.546 JLINK_IsHalted()
T54A38 000:536.539   CPU_ReadMem(2 bytes @ 0x20000000)
T54A38 000:536.832 - 2.285ms returns TRUE
T54A38 000:536.868 JLINK_ReadReg(R15 (PC))
T54A38 000:536.877 - 0.009ms returns 0x20000000
T54A38 000:536.886 JLINK_ClrBPEx(BPHandle = 0x0000000C)
T54A38 000:536.894 - 0.007ms returns 0x00
T54A38 000:536.903 JLINK_ReadReg(R0)
T54A38 000:536.911 - 0.008ms returns 0x00000001
T54A38 000:536.923 JLINK_HasError()
T54A38 000:536.939 JLINK_WriteReg(R0, 0x08002800)
T54A38 000:536.954 - 0.014ms returns 0
T54A38 000:536.969 JLINK_WriteReg(R1, 0x00000800)
T54A38 000:536.982 - 0.013ms returns 0
T54A38 000:536.997 JLINK_WriteReg(R2, 0x000000FF)
T54A38 000:537.010 - 0.013ms returns 0
T54A38 000:537.025 JLINK_WriteReg(R3, 0x00000000)
T54A38 000:537.039 - 0.013ms returns 0
T54A38 000:537.054 JLINK_WriteReg(R4, 0x00000000)
T54A38 000:537.067 - 0.013ms returns 0
T54A38 000:537.082 JLINK_WriteReg(R5, 0x00000000)
T54A38 000:537.095 - 0.013ms returns 0
T54A38 000:537.110 JLINK_WriteReg(R6, 0x00000000)
T54A38 000:537.123 - 0.012ms returns 0
T54A38 000:537.138 JLINK_WriteReg(R7, 0x00000000)
T54A38 000:537.151 - 0.013ms returns 0
T54A38 000:537.167 JLINK_WriteReg(R8, 0x00000000)
T54A38 000:537.180 - 0.013ms returns 0
T54A38 000:537.194 JLINK_WriteReg(R9, 0x20000200)
T54A38 000:537.207 - 0.012ms returns 0
T54A38 000:537.222 JLINK_WriteReg(R10, 0x00000000)
T54A38 000:537.235 - 0.012ms returns 0
T54A38 000:537.250 JLINK_WriteReg(R11, 0x00000000)
T54A38 000:537.263 - 0.012ms returns 0
T54A38 000:537.278 JLINK_WriteReg(R12, 0x00000000)
T54A38 000:537.291 - 0.013ms returns 0
T54A38 000:537.319 JLINK_WriteReg(R13 (SP), 0x20002000)
T54A38 000:537.332 - 0.014ms returns 0
T54A38 000:537.347 JLINK_WriteReg(R14, 0x20000001)
T54A38 000:537.360 - 0.013ms returns 0
T54A38 000:537.375 JLINK_WriteReg(R15 (PC), 0x20000100)
T54A38 000:537.388 - 0.012ms returns 0
T54A38 000:537.403 JLINK_WriteReg(XPSR, 0x01000000)
T54A38 000:537.416 - 0.013ms returns 0
T54A38 000:537.431 JLINK_WriteReg(MSP, 0x20002000)
T54A38 000:537.444 - 0.012ms returns 0
T54A38 000:537.458 JLINK_WriteReg(PSP, 0x20002000)
T54A38 000:537.471 - 0.012ms returns 0
T54A38 000:537.486 JLINK_WriteReg(CFBP, 0x00000000)
T54A38 000:537.499 - 0.013ms returns 0
T54A38 000:537.515 JLINK_SetBPEx(Addr = 0x20000000, Type = 0xFFFFFFF2)
T54A38 000:537.529 - 0.014ms returns 0x0000000D
T54A38 000:537.544 JLINK_Go()
T54A38 000:537.566   CPU_ReadMem(4 bytes @ 0xE0001000)
T54A38 000:539.816 - 2.271ms
T54A38 000:539.928 JLINK_IsHalted()
T54A38 000:544.126 - 4.197ms returns FALSE
T54A38 000:544.197 JLINK_HasError()
T54A38 000:545.474 JLINK_IsHalted()
T54A38 000:545.823 - 0.348ms returns FALSE
T54A38 000:545.874 JLINK_HasError()
T54A38 000:547.000 JLINK_IsHalted()
T54A38 000:547.332 - 0.331ms returns FALSE
T54A38 000:547.380 JLINK_HasError()
T54A38 000:548.513 JLINK_IsHalted()
T54A38 000:548.750 - 0.236ms returns FALSE
T54A38 000:548.763 JLINK_HasError()
T54A38 000:550.042 JLINK_IsHalted()
T54A38 000:550.368 - 0.325ms returns FALSE
T54A38 000:550.416 JLINK_HasError()
T54A38 000:551.573 JLINK_IsHalted()
T54A38 000:552.103 - 0.529ms returns FALSE
T54A38 000:552.116 JLINK_HasError()
T54A38 000:554.619 JLINK_IsHalted()
T54A38 000:555.107 - 0.487ms returns FALSE
T54A38 000:555.228 JLINK_HasError()
T54A38 000:557.780 JLINK_IsHalted()
T54A38 000:559.463 - 1.682ms returns FALSE
T54A38 000:559.496 JLINK_HasError()
T54A38 000:560.860 JLINK_IsHalted()
T54A38 000:561.157 - 0.296ms returns FALSE
